
T3BCC 000:315 SEGGER J-Link V5.12f Log File (0001ms, 0277ms total)
T3BCC 000:315 DLL Compiled: May 17 2016 16:03:35 (0001ms, 0277ms total)
T3BCC 000:315 Logging started @ 2021-04-04 22:14 (0001ms, 0277ms total)
T3BCC 000:316 JLINK_SetWarnOutHandler(...) (0000ms, 0277ms total)
T3BCC 000:316 JLINK_OpenEx(...)
Firmware: J-Link ARM V8 compiled Nov 28 2014 13:44:46
Hardware: V8.00
S/N: 87878787
Feature(s): RDI, FlashBP, FlashDL, JFlash, GDBFull  returns O.K. (0274ms, 0551ms total)
T3BCC 000:590 JLINK_SetErrorOutHandler(...) (0000ms, 0551ms total)
T3BCC 000:590 JLINK_ExecCommand("ProjectFile = "C:\Users\84308\Desktop\my_CortexM3\Keil\JLinkSettings.ini"", ...)Device "CORTEX-M3" selected.  returns 0x00 (0001ms, 0552ms total)
T3BCC 000:591 JLINK_ExecCommand("Device = CMSDK_CM3", ...)Device "CORTEX-M3" selected.  returns 0x00 (0000ms, 0552ms total)
T3BCC 000:591 JLINK_ExecCommand("DisableConnectionTimeout", ...)  returns 0x01 (0000ms, 0552ms total)
T3BCC 000:591 JLINK_GetHardwareVersion()  returns 0x13880 (0000ms, 0552ms total)
T3BCC 000:591 JLINK_GetDLLVersion()  returns 51206 (0000ms, 0552ms total)
T3BCC 000:591 JLINK_GetFirmwareString(...) (0000ms, 0552ms total)
T3BCC 000:591 JLINK_GetDLLVersion()  returns 51206 (0000ms, 0552ms total)
T3BCC 000:591 JLINK_GetCompileDateTime() (0000ms, 0552ms total)
T3BCC 000:591 JLINK_GetFirmwareString(...) (0000ms, 0552ms total)
T3BCC 000:591 JLINK_GetHardwareVersion()  returns 0x13880 (0000ms, 0552ms total)
T3BCC 000:591 JLINK_TIF_Select(JLINKARM_TIF_SWD)  returns 0x00 (0003ms, 0555ms total)
T3BCC 000:594 JLINK_SetSpeed(5000) (0000ms, 0555ms total)
T3BCC 000:594 JLINK_GetId() >0x108 TIF>Found SWD-DP with ID 0x2BA01477 >0x0D TIF> >0x28 TIF> >0x0D TIF> >0x28 TIF> >0x0D TIF> >0x28 TIF> >0x0D TIF> >0x28 TIF> >0x0D TIF> >0x21 TIF> >0x0D TIF> >0x28 TIF> >0x0D TIF> >0x28 TIF> >0x0D TIF> >0x21 TIF> >0x0D TIF> >0x21 TIF> >0x0D TIF> >0x21 TIF> >0x0D TIF> >0x28 TIF> >0x0D TIF> >0x28 TIF> >0x0D TIF> >0x28 TIF> >0x0D TIF> >0x21 TIF> >0x0D TIF> >0x21 TIF> >0x0D TIF> >0x28 TIF> >0x0D TIF> >0x21 TIF> >0x0D TIF> >0x21 TIF>Found Cortex-M3 r2p1, Little endian.
 -- CPU_ReadMem(4 bytes @ 0xE000EDF0) -- CPU_ReadMem(4 bytes @ 0xE0002000)FPUnit: 6 code (BP) slots and 2 literal slots -- CPU_ReadMem(4 bytes @ 0xE000EDFC) -- CPU_ReadMem(4 bytes @ 0xE0001000) -- CPU_WriteMem(4 bytes @ 0xE0001000) -- CPU_ReadMem(4 bytes @ 0xE000ED88) -- CPU_WriteMem(4 bytes @ 0xE000ED88) -- CPU_ReadMem(4 bytes @ 0xE000ED88) -- CPU_WriteMem(4 bytes @ 0xE000ED88)CoreSight components:ROMTbl 0 @ E00FF000 -- CPU_ReadMem(16 bytes @ 0xE00FF000) -- CPU_ReadMem(16 bytes @ 0xE000EFF0)
 -- CPU_ReadMem(16 bytes @ 0xE000EFE0)ROMTbl 0 [0]: FFF0F000, CID: B105E00D, PID: 000BB000 SCS -- CPU_ReadMem(16 bytes @ 0xE0001FF0) -- CPU_ReadMem(16 bytes @ 0xE0001FE0)ROMTbl 0 [1]: FFF02000, CID: B105E00D, PID: 003BB002 DWT -- CPU_ReadMem(16 bytes @ 0xE0002FF0) -- CPU_ReadMem(16 bytes @ 0xE0002FE0)ROMTbl 0 [2]: FFF03000, CID: B105E00D, PID: 002BB003 FPB -- CPU_ReadMem(16 bytes @ 0xE0000FF0) -- CPU_ReadMem(16 bytes @ 0xE0000FE0)ROMTbl 0 [3]: FFF01000, CID: B105E00D, PID: 003BB001 ITM
 -- CPU_ReadMem(16 bytes @ 0xE00FF010) -- CPU_ReadMem(16 bytes @ 0xE0040FF0) -- CPU_ReadMem(16 bytes @ 0xE0040FE0)ROMTbl 0 [4]: FFF41000, CID: B105900D, PID: 003BB923 TPIU-Lite -- CPU_ReadMem(16 bytes @ 0xE0041FF0) -- CPU_ReadMem(16 bytes @ 0xE0041FE0)ROMTbl 0 [5]: FFF42000, CID: B105900D, PID: 003BB924 ETM-M3 >0x0D TIF> >0x21 TIF>  returns 0x2BA01477 (0067ms, 0622ms total)
T3BCC 000:661 JLINK_GetDLLVersion()  returns 51206 (0000ms, 0622ms total)
T3BCC 000:661 JLINK_CORE_GetFound()  returns 0x30000FF (0000ms, 0622ms total)
T3BCC 000:661 JLINK_GetDebugInfo(0x100) -- Value=0xE00FF000  returns 0x00 (0000ms, 0622ms total)
T3BCC 000:661 JLINK_ReadMem (0xE00FF000, 0x0020 Bytes, ...) -- CPU is running -- CPU_ReadMem(32 bytes @ 0xE00FF000) - Data: 03 F0 F0 FF 03 20 F0 FF 03 30 F0 FF 03 10 F0 FF ...  returns 0x00 (0001ms, 0623ms total)
T3BCC 000:662 JLINK_ReadMem (0xE000EFF0, 0x0010 Bytes, ...) -- CPU is running -- CPU_ReadMem(16 bytes @ 0xE000EFF0) - Data: 0D 00 00 00 E0 00 00 00 05 00 00 00 B1 00 00 00  returns 0x00 (0001ms, 0624ms total)
T3BCC 000:663 JLINK_ReadMem (0xE000EFD0, 0x0020 Bytes, ...) -- CPU is running -- CPU_ReadMem(32 bytes @ 0xE000EFD0) - Data: 04 00 00 00 00 00 00 00 00 00 00 00 00 00 00 00 ...  returns 0x00 (0001ms, 0625ms total)
T3BCC 000:664 JLINK_ReadMem (0xE0001FF0, 0x0010 Bytes, ...) -- CPU is running -- CPU_ReadMem(16 bytes @ 0xE0001FF0) - Data: 0D 00 00 00 E0 00 00 00 05 00 00 00 B1 00 00 00  returns 0x00 (0001ms, 0626ms total)
T3BCC 000:665 JLINK_ReadMem (0xE0001FD0, 0x0020 Bytes, ...) -- CPU is running -- CPU_ReadMem(32 bytes @ 0xE0001FD0) - Data: 04 00 00 00 00 00 00 00 00 00 00 00 00 00 00 00 ...  returns 0x00 (0001ms, 0627ms total)
T3BCC 000:666 JLINK_ReadMem (0xE0002FF0, 0x0010 Bytes, ...) -- CPU is running -- CPU_ReadMem(16 bytes @ 0xE0002FF0) - Data: 0D 00 00 00 E0 00 00 00 05 00 00 00 B1 00 00 00  returns 0x00 (0001ms, 0628ms total)
T3BCC 000:667 JLINK_ReadMem (0xE0002FD0, 0x0020 Bytes, ...) -- CPU is running -- CPU_ReadMem(32 bytes @ 0xE0002FD0) - Data: 04 00 00 00 00 00 00 00 00 00 00 00 00 00 00 00 ...  returns 0x00 (0001ms, 0629ms total)
T3BCC 000:668 JLINK_ReadMem (0xE0000FF0, 0x0010 Bytes, ...) -- CPU is running -- CPU_ReadMem(16 bytes @ 0xE0000FF0) - Data: 0D 00 00 00 E0 00 00 00 05 00 00 00 B1 00 00 00  returns 0x00 (0001ms, 0630ms total)
T3BCC 000:669 JLINK_ReadMem (0xE0000FD0, 0x0020 Bytes, ...) -- CPU is running -- CPU_ReadMem(32 bytes @ 0xE0000FD0) - Data: 04 00 00 00 00 00 00 00 00 00 00 00 00 00 00 00 ...  returns 0x00 (0001ms, 0631ms total)
T3BCC 000:670 JLINK_ReadMem (0xE0040FF0, 0x0010 Bytes, ...) -- CPU is running -- CPU_ReadMem(16 bytes @ 0xE0040FF0) - Data: 0D 00 00 00 90 00 00 00 05 00 00 00 B1 00 00 00  returns 0x00 (0001ms, 0632ms total)
T3BCC 000:671 JLINK_ReadMem (0xE0040FD0, 0x0020 Bytes, ...) -- CPU is running -- CPU_ReadMem(32 bytes @ 0xE0040FD0) - Data: 04 00 00 00 00 00 00 00 00 00 00 00 00 00 00 00 ...  returns 0x00 (0001ms, 0633ms total)
T3BCC 000:672 JLINK_ReadMem (0xE0041FF0, 0x0010 Bytes, ...) -- CPU is running -- CPU_ReadMem(16 bytes @ 0xE0041FF0) - Data: 0D 00 00 00 90 00 00 00 05 00 00 00 B1 00 00 00  returns 0x00 (0001ms, 0634ms total)
T3BCC 000:673 JLINK_ReadMem (0xE0041FD0, 0x0020 Bytes, ...) -- CPU is running -- CPU_ReadMem(32 bytes @ 0xE0041FD0) - Data: 04 00 00 00 00 00 00 00 00 00 00 00 00 00 00 00 ...  returns 0x00 (0001ms, 0635ms total)
T3BCC 000:674 JLINK_ReadMemU32(0xE000ED00, 0x0001 Items, ...) -- CPU is running -- CPU_ReadMem(4 bytes @ 0xE000ED00) - Data: 31 C2 2F 41  returns 0x01 (0001ms, 0636ms total)
T3BCC 000:675 JLINK_SetResetType(JLINKARM_RESET_TYPE_NORMAL)  returns JLINKARM_RESET_TYPE_NORMAL (0000ms, 0636ms total)
T3BCC 000:675 JLINK_Reset() -- CPU is running -- CPU_WriteMem(4 bytes @ 0xE000EDF0) -- CPU is running -- CPU_WriteMem(4 bytes @ 0xE000EDFC) >0x35 TIF> -- CPU is running -- CPU_WriteMem(4 bytes @ 0xE000ED0C) -- CPU is running -- CPU_ReadMem(4 bytes @ 0xE000EDF0) -- CPU is running -- CPU_ReadMem(4 bytes @ 0xE000EDF0) -- CPU is running -- CPU_WriteMem(4 bytes @ 0xE000EDF0) -- CPU is running -- CPU_WriteMem(4 bytes @ 0xE000EDFC) -- CPU is running -- CPU_ReadMem(4 bytes @ 0xE000EDF0)
 -- CPU_WriteMem(4 bytes @ 0xE0002000) -- CPU_ReadMem(4 bytes @ 0xE000EDFC) -- CPU_ReadMem(4 bytes @ 0xE0001000) (0023ms, 0659ms total)
T3BCC 000:698 JLINK_ReadReg(R15 (PC))  returns 0x00000068 (0000ms, 0659ms total)
T3BCC 000:698 JLINK_ReadReg(XPSR)  returns 0x01000000 (0000ms, 0659ms total)
T3BCC 000:698 JLINK_Halt()  returns 0x00 (0000ms, 0659ms total)
T3BCC 000:698 JLINK_IsHalted()  returns TRUE (0000ms, 0659ms total)
T3BCC 000:698 JLINK_ReadMemU32(0xE000EDF0, 0x0001 Items, ...) -- CPU_ReadMem(4 bytes @ 0xE000EDF0) - Data: 03 00 03 00  returns 0x01 (0001ms, 0660ms total)
T3BCC 000:699 JLINK_WriteU32(0xE000EDF0, 0xA05F0003) -- CPU_WriteMem(4 bytes @ 0xE000EDF0)  returns 0x00 (0001ms, 0661ms total)
T3BCC 000:700 JLINK_WriteU32(0xE000EDFC, 0x01000000) -- CPU_WriteMem(4 bytes @ 0xE000EDFC)  returns 0x00 (0001ms, 0662ms total)
T3BCC 000:701 JLINK_GetHWStatus(...)  returns 0x00 (0000ms, 0662ms total)
T3BCC 000:701 JLINK_GetNumBPUnits(Type = 0xFFFFFF00)  returns 0x06 (0000ms, 0662ms total)
T3BCC 000:701 JLINK_GetNumBPUnits(Type = 0xF0)  returns 0x2000 (0000ms, 0662ms total)
T3BCC 000:701 JLINK_GetNumWPUnits()  returns 0x04 (0000ms, 0662ms total)
T3BCC 000:701 JLINK_GetSpeed()  returns 0xFA0 (0000ms, 0662ms total)
T3BCC 000:701 JLINK_ReadMemU32(0xE000E004, 0x0001 Items, ...) -- CPU_ReadMem(4 bytes @ 0xE000E004) - Data: 01 00 00 00  returns 0x01 (0001ms, 0663ms total)
T3BCC 000:702 JLINK_ReadMemU32(0xE000E004, 0x0001 Items, ...) -- CPU_ReadMem(4 bytes @ 0xE000E004) - Data: 01 00 00 00  returns 0x01 (0001ms, 0664ms total)
T3BCC 000:703 JLINK_WriteMem(0xE0001000, 0x001C Bytes, ...) - Data: 01 00 00 00 00 00 00 00 00 00 00 00 00 00 00 00 ... -- CPU_WriteMem(28 bytes @ 0xE0001000)  returns 0x1C (0002ms, 0666ms total)
T3BCC 000:705 JLINK_ReadMem (0xE0001000, 0x001C Bytes, ...) -- CPU_ReadMem(28 bytes @ 0xE0001000) - Data: 01 00 00 40 00 00 00 00 00 00 00 00 00 00 00 00 ...  returns 0x00 (0001ms, 0667ms total)
T3BCC 000:706 JLINK_ReadReg(R15 (PC))  returns 0x00000068 (0000ms, 0667ms total)
T3BCC 000:706 JLINK_ReadReg(XPSR)  returns 0x01000000 (0000ms, 0667ms total)
T3BCC 000:713 JLINK_ReadMem (0xE0001004, 0x0004 Bytes, ...) -- CPU_ReadMem(4 bytes @ 0xE0001004) - Data: 00 00 00 00  returns 0x00 (0001ms, 0668ms total)
T3BCC 002:847 JLINK_ReadMem (0x00000000, 0x003C Bytes, ...) -- CPU_ReadMem(60 bytes @ 0x00000000) - Data: 30 80 00 20 69 00 00 00 71 00 00 00 79 00 00 00 ...  returns 0x00 (0001ms, 0669ms total)
T3BCC 003:828 JLINK_ReadMem (0x40003000, 0x00B0 Bytes, ...) -- CPU_ReadMem(176 bytes @ 0x40003000) - Data: 00 00 00 00 00 01 00 00 00 02 00 00 00 03 00 00 ...  returns 0x00 (0002ms, 0671ms total)
T3BCC 003:836 JLINK_ReadMem (0x40003000, 0x00B0 Bytes, ...) -- CPU_ReadMem(176 bytes @ 0x40003000) - Data: 00 00 00 00 00 01 00 00 00 02 00 00 00 03 00 00 ...  returns 0x00 (0002ms, 0673ms total)
T3BCC 003:839 JLINK_ReadMem (0x40003000, 0x00B0 Bytes, ...) -- CPU_ReadMem(176 bytes @ 0x40003000) - Data: 00 00 00 00 00 01 00 00 00 02 00 00 00 03 00 00 ...  returns 0x00 (0003ms, 0676ms total)
T3BCC 004:397 JLINK_SetResetType(JLINKARM_RESET_TYPE_NORMAL)  returns JLINKARM_RESET_TYPE_NORMAL (0000ms, 0676ms total)
T3BCC 004:397 JLINK_Reset() -- CPU_WriteMem(4 bytes @ 0xE000EDF0) -- CPU_WriteMem(4 bytes @ 0xE000EDFC) >0x35 TIF> -- CPU_WriteMem(4 bytes @ 0xE000ED0C) -- CPU_ReadMem(4 bytes @ 0xE000EDF0) -- CPU_ReadMem(4 bytes @ 0xE000EDF0) -- CPU_WriteMem(4 bytes @ 0xE000EDF0) -- CPU_WriteMem(4 bytes @ 0xE000EDFC) -- CPU is running -- CPU_ReadMem(4 bytes @ 0xE000EDF0) -- CPU_WriteMem(4 bytes @ 0xE0002000) -- CPU_ReadMem(4 bytes @ 0xE000EDFC) -- CPU_ReadMem(4 bytes @ 0xE0001000) (0024ms, 0700ms total)
T3BCC 004:421 JLINK_ReadReg(R15 (PC))  returns 0x00000068 (0000ms, 0700ms total)
T3BCC 004:421 JLINK_ReadReg(XPSR)  returns 0x01000000 (0000ms, 0700ms total)
T3BCC 004:421 JLINK_ReadMem (0x40003000, 0x00B0 Bytes, ...) -- CPU_ReadMem(176 bytes @ 0x40003000) - Data: 00 00 00 00 00 01 00 00 00 02 00 00 00 03 00 00 ...  returns 0x00 (0002ms, 0702ms total)
T3BCC 004:427 JLINK_ReadMem (0x00000068, 0x003C Bytes, ...) -- CPU_ReadMem(60 bytes @ 0x00000068) - Data: 1B 48 80 47 1B 48 00 47 00 B5 00 F0 74 F8 00 BD ...  returns 0x00 (0001ms, 0703ms total)
T3BCC 004:469 JLINK_WriteMem(0xE000ED08, 0x0004 Bytes, ...) - Data: 00 00 00 00 -- CPU_WriteMem(4 bytes @ 0xE000ED08)  returns 0x04 (0001ms, 0704ms total)
T3BCC 004:492 JLINK_WriteMem(0x00000000, 0x0400 Bytes, ...) - Data: 30 80 00 20 69 00 00 00 71 00 00 00 79 00 00 00 ... -- CPU_WriteMem(1024 bytes @ 0x00000000)  returns 0x400 (0007ms, 0711ms total)
T3BCC 004:499 JLINK_WriteMem(0x00000400, 0x01F4 Bytes, ...) - Data: 55 E0 2B A0 FF F7 FA FE 00 20 20 E0 3D 49 09 68 ... -- CPU_WriteMem(500 bytes @ 0x00000400)  returns 0x1F4 (0004ms, 0715ms total)
T3BCC 004:557 JLINK_SetResetType(JLINKARM_RESET_TYPE_NORMAL)  returns JLINKARM_RESET_TYPE_NORMAL (0000ms, 0715ms total)
T3BCC 004:557 JLINK_Reset() -- CPU_WriteMem(4 bytes @ 0xE000EDF0) -- CPU_WriteMem(4 bytes @ 0xE000EDFC) >0x35 TIF> -- CPU_WriteMem(4 bytes @ 0xE000ED0C) -- CPU_ReadMem(4 bytes @ 0xE000EDF0) -- CPU_ReadMem(4 bytes @ 0xE000EDF0) -- CPU_WriteMem(4 bytes @ 0xE000EDF0) -- CPU_WriteMem(4 bytes @ 0xE000EDFC) -- CPU is running -- CPU_ReadMem(4 bytes @ 0xE000EDF0) -- CPU_WriteMem(4 bytes @ 0xE0002000) -- CPU_ReadMem(4 bytes @ 0xE000EDFC) -- CPU_ReadMem(4 bytes @ 0xE0001000) (0023ms, 0738ms total)
T3BCC 004:580 JLINK_ReadReg(R15 (PC))  returns 0x00000068 (0000ms, 0738ms total)
T3BCC 004:580 JLINK_ReadReg(XPSR)  returns 0x01000000 (0000ms, 0738ms total)
T3BCC 004:580 JLINK_ReadMem (0x40003000, 0x00B0 Bytes, ...) -- CPU_ReadMem(176 bytes @ 0x40003000) - Data: 00 00 00 00 00 01 00 00 00 02 00 00 00 03 00 00 ...  returns 0x00 (0002ms, 0740ms total)
T3BCC 004:625 JLINK_ReadMem (0x00000068, 0x003C Bytes, ...) -- CPU_ReadMem(60 bytes @ 0x00000068) - Data: 1B 48 80 47 1B 48 00 47 00 B5 00 F0 74 F8 00 BD ...  returns 0x00 (0002ms, 0742ms total)
T3BCC 004:762 JLINK_ReadMem (0x00000000, 0x0004 Bytes, ...) -- CPU_ReadMem(4 bytes @ 0x00000000) - Data: 30 80 00 20  returns 0x00 (0001ms, 0743ms total)
T3BCC 004:763 JLINK_WriteReg(R13 (SP), 0x20008030)  returns 0x00 (0000ms, 0743ms total)
T3BCC 004:763 JLINK_ReadReg(R0)  returns 0x00000007 (0000ms, 0743ms total)
T3BCC 004:763 JLINK_ReadReg(R1)  returns 0xE000E000 (0000ms, 0743ms total)
T3BCC 004:763 JLINK_ReadReg(R2)  returns 0x0000C350 (0000ms, 0743ms total)
T3BCC 004:763 JLINK_ReadReg(R3)  returns 0x0000000A (0000ms, 0743ms total)
T3BCC 004:763 JLINK_ReadReg(R4)  returns 0x00000032 (0000ms, 0743ms total)
T3BCC 004:763 JLINK_ReadReg(R5)  returns 0x000005C4 (0000ms, 0743ms total)
T3BCC 004:763 JLINK_ReadReg(R6)  returns 0x00000000 (0000ms, 0743ms total)
T3BCC 004:763 JLINK_ReadReg(R7)  returns 0x00000000 (0000ms, 0743ms total)
T3BCC 004:763 JLINK_ReadReg(R8)  returns 0x00000000 (0000ms, 0743ms total)
T3BCC 004:763 JLINK_ReadReg(R9)  returns 0x00000000 (0000ms, 0743ms total)
T3BCC 004:763 JLINK_ReadReg(R10)  returns 0x00000000 (0000ms, 0743ms total)
T3BCC 004:763 JLINK_ReadReg(R11)  returns 0x00000000 (0000ms, 0743ms total)
T3BCC 004:763 JLINK_ReadReg(R12)  returns 0x00000000 (0000ms, 0743ms total)
T3BCC 004:763 JLINK_ReadReg(R13 (SP))  returns 0x20008030 (0000ms, 0743ms total)
T3BCC 004:763 JLINK_ReadReg(R14)  returns 0xFFFFFFFF (0000ms, 0743ms total)
T3BCC 004:763 JLINK_ReadReg(R15 (PC))  returns 0x00000068 (0000ms, 0743ms total)
T3BCC 004:763 JLINK_ReadReg(XPSR)  returns 0x01000000 (0000ms, 0743ms total)
T3BCC 004:763 JLINK_ReadReg(MSP)  returns 0x20008030 (0000ms, 0743ms total)
T3BCC 004:763 JLINK_ReadReg(PSP)  returns 0x00000000 (0000ms, 0743ms total)
T3BCC 004:763 JLINK_ReadReg(CFBP)  returns 0x00000000 (0000ms, 0743ms total)
T3BCC 004:763 JLINK_ReadMem (0x00000004, 0x0004 Bytes, ...) -- CPU_ReadMem(4 bytes @ 0x00000004) - Data: 69 00 00 00  returns 0x00 (0001ms, 0744ms total)
T3BCC 004:764 JLINK_WriteReg(R15 (PC), 0x00000068)  returns 0x00 (0000ms, 0744ms total)
T3BCC 004:765 JLINK_ReadReg(R0)  returns 0x00000007 (0000ms, 0744ms total)
T3BCC 004:765 JLINK_ReadReg(R1)  returns 0xE000E000 (0000ms, 0744ms total)
T3BCC 004:765 JLINK_ReadReg(R2)  returns 0x0000C350 (0000ms, 0744ms total)
T3BCC 004:765 JLINK_ReadReg(R3)  returns 0x0000000A (0000ms, 0744ms total)
T3BCC 004:765 JLINK_ReadReg(R4)  returns 0x00000032 (0000ms, 0744ms total)
T3BCC 004:765 JLINK_ReadReg(R5)  returns 0x000005C4 (0000ms, 0744ms total)
T3BCC 004:765 JLINK_ReadReg(R6)  returns 0x00000000 (0000ms, 0744ms total)
T3BCC 004:765 JLINK_ReadReg(R7)  returns 0x00000000 (0000ms, 0744ms total)
T3BCC 004:765 JLINK_ReadReg(R8)  returns 0x00000000 (0000ms, 0744ms total)
T3BCC 004:765 JLINK_ReadReg(R9)  returns 0x00000000 (0000ms, 0744ms total)
T3BCC 004:765 JLINK_ReadReg(R10)  returns 0x00000000 (0000ms, 0744ms total)
T3BCC 004:765 JLINK_ReadReg(R11)  returns 0x00000000 (0000ms, 0744ms total)
T3BCC 004:765 JLINK_ReadReg(R12)  returns 0x00000000 (0000ms, 0744ms total)
T3BCC 004:765 JLINK_ReadReg(R13 (SP))  returns 0x20008030 (0000ms, 0744ms total)
T3BCC 004:765 JLINK_ReadReg(R14)  returns 0xFFFFFFFF (0000ms, 0744ms total)
T3BCC 004:766 JLINK_ReadReg(R15 (PC))  returns 0x00000068 (0000ms, 0744ms total)
T3BCC 004:766 JLINK_ReadReg(XPSR)  returns 0x01000000 (0000ms, 0744ms total)
T3BCC 004:766 JLINK_ReadReg(MSP)  returns 0x20008030 (0000ms, 0744ms total)
T3BCC 004:766 JLINK_ReadReg(PSP)  returns 0x00000000 (0000ms, 0744ms total)
T3BCC 004:766 JLINK_ReadReg(CFBP)  returns 0x00000000 (0000ms, 0744ms total)
T3BCC 004:766 JLINK_ReadMem (0x20000010, 0x0004 Bytes, ...) -- CPU_ReadMem(4 bytes @ 0x20000010) - Data: 0C 33 00 40  returns 0x00 (0001ms, 0745ms total)
T3BCC 004:802 JLINK_ReadMem (0x20000014, 0x0004 Bytes, ...) -- CPU_ReadMem(4 bytes @ 0x20000014) - Data: 00 C3 00 00  returns 0x00 (0000ms, 0745ms total)
T3BCC 004:812 JLINK_ReadMem (0x20000018, 0x0004 Bytes, ...) -- CPU_ReadMem(4 bytes @ 0x20000018) - Data: 00 00 C3 00  returns 0x00 (0001ms, 0746ms total)
T3BCC 004:825 JLINK_ReadMem (0x2000001C, 0x0004 Bytes, ...) -- CPU_ReadMem(4 bytes @ 0x2000001C) - Data: 00 00 00 C3  returns 0x00 (0001ms, 0747ms total)
T3BCC 004:837 JLINK_ReadMem (0x20000020, 0x0004 Bytes, ...) -- CPU_ReadMem(4 bytes @ 0x20000020) - Data: C3 C3 C3 C3  returns 0x00 (0001ms, 0748ms total)
T3BCC 004:877 JLINK_ReadMem (0x40003000, 0x00B0 Bytes, ...) -- CPU_ReadMem(176 bytes @ 0x40003000) - Data: 00 00 00 00 00 01 00 00 00 02 00 00 00 03 00 00 ...  returns 0x00 (0003ms, 0751ms total)
T3BCC 004:881 JLINK_ReadMem (0x00000050, 0x003C Bytes, ...) -- CPU_ReadMem(60 bytes @ 0x00000050) - Data: DF F8 10 D0 00 F0 5A F8 00 48 00 47 DD 03 00 00 ...  returns 0x00 (0001ms, 0752ms total)
T3BCC 004:901 JLINK_ReadMem (0x40003000, 0x00B0 Bytes, ...) -- CPU_ReadMem(176 bytes @ 0x40003000) - Data: 00 00 00 00 00 01 00 00 00 02 00 00 00 03 00 00 ...  returns 0x00 (0003ms, 0755ms total)
T3BCC 004:910 JLINK_ReadMem (0x40003000, 0x00B0 Bytes, ...) -- CPU_ReadMem(176 bytes @ 0x40003000) - Data: 00 00 00 00 00 01 00 00 00 02 00 00 00 03 00 00 ...  returns 0x00 (0002ms, 0757ms total)
T0A74 007:030 JLINK_Step() -- CPU_ReadMem(2 bytes @ 0x00000068) -- CPU_ReadMem(4 bytes @ 0xE000ED18) -- CPU_WriteMem(4 bytes @ 0xE000ED18) -- CPU_ReadMem(4 bytes @ 0xE000ED18) -- CPU_WriteMem(4 bytes @ 0xE000ED18) -- Not simulated -- CPU_WriteMem(4 bytes @ 0xE0001004)  returns 0x00 (0010ms, 0767ms total)
T0A74 007:040 JLINK_ReadReg(R15 (PC))  returns 0x0000006A (0000ms, 0767ms total)
T0A74 007:040 JLINK_ReadReg(XPSR)  returns 0x01000000 (0000ms, 0767ms total)
T0A74 007:041 JLINK_ReadReg(R0)  returns 0x000001B1 (0000ms, 0767ms total)
T0A74 007:041 JLINK_ReadReg(R1)  returns 0xE000E000 (0000ms, 0767ms total)
T0A74 007:041 JLINK_ReadReg(R2)  returns 0x0000C350 (0000ms, 0767ms total)
T0A74 007:041 JLINK_ReadReg(R3)  returns 0x0000000A (0000ms, 0767ms total)
T0A74 007:041 JLINK_ReadReg(R4)  returns 0x00000032 (0000ms, 0767ms total)
T0A74 007:041 JLINK_ReadReg(R5)  returns 0x000005C4 (0000ms, 0767ms total)
T0A74 007:041 JLINK_ReadReg(R6)  returns 0x00000000 (0000ms, 0767ms total)
T0A74 007:041 JLINK_ReadReg(R7)  returns 0x00000000 (0000ms, 0767ms total)
T0A74 007:041 JLINK_ReadReg(R8)  returns 0x00000000 (0000ms, 0767ms total)
T0A74 007:041 JLINK_ReadReg(R9)  returns 0x00000000 (0000ms, 0767ms total)
T0A74 007:041 JLINK_ReadReg(R10)  returns 0x00000000 (0000ms, 0767ms total)
T0A74 007:041 JLINK_ReadReg(R11)  returns 0x00000000 (0000ms, 0767ms total)
T0A74 007:041 JLINK_ReadReg(R12)  returns 0x00000000 (0000ms, 0767ms total)
T0A74 007:041 JLINK_ReadReg(R13 (SP))  returns 0x20008030 (0000ms, 0767ms total)
T0A74 007:041 JLINK_ReadReg(R14)  returns 0xFFFFFFFF (0000ms, 0767ms total)
T0A74 007:041 JLINK_ReadReg(R15 (PC))  returns 0x0000006A (0000ms, 0767ms total)
T0A74 007:041 JLINK_ReadReg(XPSR)  returns 0x01000000 (0000ms, 0767ms total)
T0A74 007:041 JLINK_ReadReg(MSP)  returns 0x20008030 (0000ms, 0767ms total)
T0A74 007:041 JLINK_ReadReg(PSP)  returns 0x00000000 (0000ms, 0767ms total)
T0A74 007:041 JLINK_ReadReg(CFBP)  returns 0x00000000 (0001ms, 0768ms total)
T3BCC 007:042 JLINK_ReadMem (0x20000010, 0x0004 Bytes, ...) -- CPU_ReadMem(4 bytes @ 0x20000010) - Data: 0C 33 00 40  returns 0x00 (0001ms, 0769ms total)
T3BCC 007:043 JLINK_ReadMem (0x20000014, 0x0004 Bytes, ...) -- CPU_ReadMem(4 bytes @ 0x20000014) - Data: 00 C3 00 00  returns 0x00 (0001ms, 0770ms total)
T3BCC 007:044 JLINK_ReadMem (0x20000018, 0x0004 Bytes, ...) -- CPU_ReadMem(4 bytes @ 0x20000018) - Data: 00 00 C3 00  returns 0x00 (0001ms, 0771ms total)
T3BCC 007:045 JLINK_ReadMem (0x2000001C, 0x0004 Bytes, ...) -- CPU_ReadMem(4 bytes @ 0x2000001C) - Data: 00 00 00 C3  returns 0x00 (0001ms, 0772ms total)
T3BCC 007:046 JLINK_ReadMem (0x20000020, 0x0004 Bytes, ...) -- CPU_ReadMem(4 bytes @ 0x20000020) - Data: C3 C3 C3 C3  returns 0x00 (0000ms, 0772ms total)
T3BCC 007:046 JLINK_ReadMem (0x40003000, 0x00B0 Bytes, ...) -- CPU_ReadMem(176 bytes @ 0x40003000) - Data: 00 00 00 00 00 01 00 00 00 02 00 00 00 03 00 00 ...  returns 0x00 (0002ms, 0774ms total)
T3BCC 007:059 JLINK_ReadMem (0x00000066, 0x0002 Bytes, ...) -- CPU_ReadMem(64 bytes @ 0x00000040) -- Updating DA cache (64 bytes @ 0x00000040) -- Read from DA cache (2 bytes @ 0x00000066) - Data: 00 20  returns 0x00 (0002ms, 0776ms total)
T3BCC 007:061 JLINK_ReadMem (0x00000068, 0x003C Bytes, ...) -- CPU_ReadMem(64 bytes @ 0x00000080) -- Updating DA cache (64 bytes @ 0x00000080) -- Read from DA cache (60 bytes @ 0x00000068) - Data: 1B 48 80 47 1B 48 00 47 00 B5 00 F0 74 F8 00 BD ...  returns 0x00 (0001ms, 0777ms total)
T0A74 007:553 JLINK_SetBPEx(Addr = 0x0000006C, Type = 0xFFFFFFF2)  returns 0x00000001 (0000ms, 0777ms total)
T0A74 007:553 JLINK_Go() -- CPU_WriteMem(4 bytes @ 0xE0002000) -- CPU_ReadMem(4 bytes @ 0xE0001000) -- CPU_WriteMem(4 bytes @ 0xE0002008) -- CPU_WriteMem(4 bytes @ 0xE000200C) -- CPU_WriteMem(4 bytes @ 0xE0002010) -- CPU_WriteMem(4 bytes @ 0xE0002014) -- CPU_WriteMem(4 bytes @ 0xE0002018) -- CPU_WriteMem(4 bytes @ 0xE000201C) (0006ms, 0783ms total)
T0A74 007:660 JLINK_IsHalted()  returns TRUE (0003ms, 0786ms total)
T0A74 007:663 JLINK_Halt()  returns 0x00 (0000ms, 0783ms total)
T0A74 007:663 JLINK_IsHalted()  returns TRUE (0000ms, 0783ms total)
T0A74 007:663 JLINK_IsHalted()  returns TRUE (0000ms, 0783ms total)
T0A74 007:663 JLINK_IsHalted()  returns TRUE (0000ms, 0783ms total)
T0A74 007:663 JLINK_ReadReg(R15 (PC))  returns 0x0000006C (0000ms, 0783ms total)
T0A74 007:663 JLINK_ReadReg(XPSR)  returns 0x61000000 (0000ms, 0783ms total)
T0A74 007:663 JLINK_ClrBPEx(BPHandle = 0x00000001)  returns 0x00 (0000ms, 0783ms total)
T0A74 007:663 JLINK_ReadMemU32(0xE000ED30, 0x0001 Items, ...) -- CPU_ReadMem(4 bytes @ 0xE000ED30) - Data: 03 00 00 00  returns 0x01 (0001ms, 0784ms total)
T0A74 007:664 JLINK_ReadMemU32(0xE0001028, 0x0001 Items, ...) -- CPU_ReadMem(4 bytes @ 0xE0001028) - Data: 00 00 00 00  returns 0x01 (0001ms, 0785ms total)
T0A74 007:665 JLINK_ReadMemU32(0xE0001038, 0x0001 Items, ...) -- CPU_ReadMem(4 bytes @ 0xE0001038) - Data: 00 02 00 00  returns 0x01 (0001ms, 0786ms total)
T0A74 007:666 JLINK_ReadMemU32(0xE0001048, 0x0001 Items, ...) -- CPU_ReadMem(4 bytes @ 0xE0001048) - Data: 00 00 00 00  returns 0x01 (0001ms, 0787ms total)
T0A74 007:667 JLINK_ReadMemU32(0xE0001058, 0x0001 Items, ...) -- CPU_ReadMem(4 bytes @ 0xE0001058) - Data: 00 00 00 00  returns 0x01 (0001ms, 0788ms total)
T0A74 007:668 JLINK_ReadReg(R0)  returns 0x00000000 (0000ms, 0788ms total)
T0A74 007:668 JLINK_ReadReg(R1)  returns 0x00000000 (0000ms, 0788ms total)
T0A74 007:668 JLINK_ReadReg(R2)  returns 0x00000000 (0000ms, 0788ms total)
T0A74 007:668 JLINK_ReadReg(R3)  returns 0x00000000 (0000ms, 0788ms total)
T0A74 007:668 JLINK_ReadReg(R4)  returns 0x00000032 (0000ms, 0788ms total)
T0A74 007:668 JLINK_ReadReg(R5)  returns 0x000005C4 (0000ms, 0788ms total)
T0A74 007:668 JLINK_ReadReg(R6)  returns 0x00000000 (0000ms, 0788ms total)
T0A74 007:668 JLINK_ReadReg(R7)  returns 0x00000000 (0000ms, 0788ms total)
T0A74 007:668 JLINK_ReadReg(R8)  returns 0x00000000 (0000ms, 0788ms total)
T0A74 007:668 JLINK_ReadReg(R9)  returns 0x00000000 (0000ms, 0788ms total)
T0A74 007:668 JLINK_ReadReg(R10)  returns 0x00000000 (0001ms, 0789ms total)
T0A74 007:669 JLINK_ReadReg(R11)  returns 0x00000000 (0000ms, 0789ms total)
T0A74 007:669 JLINK_ReadReg(R12)  returns 0x00000000 (0000ms, 0789ms total)
T0A74 007:669 JLINK_ReadReg(R13 (SP))  returns 0x20008030 (0000ms, 0789ms total)
T0A74 007:669 JLINK_ReadReg(R14)  returns 0x000001E9 (0000ms, 0789ms total)
T0A74 007:669 JLINK_ReadReg(R15 (PC))  returns 0x0000006C (0000ms, 0789ms total)
T0A74 007:669 JLINK_ReadReg(XPSR)  returns 0x61000000 (0000ms, 0789ms total)
T0A74 007:669 JLINK_ReadReg(MSP)  returns 0x20008030 (0000ms, 0789ms total)
T0A74 007:669 JLINK_ReadReg(PSP)  returns 0x00000000 (0000ms, 0789ms total)
T0A74 007:669 JLINK_ReadReg(CFBP)  returns 0x00000000 (0000ms, 0789ms total)
T3BCC 007:669 JLINK_ReadMem (0x20000010, 0x0004 Bytes, ...) -- CPU_ReadMem(4 bytes @ 0x20000010) - Data: 0C 33 00 40  returns 0x00 (0001ms, 0790ms total)
T3BCC 007:671 JLINK_ReadMem (0x20000014, 0x0004 Bytes, ...) -- CPU_ReadMem(4 bytes @ 0x20000014) - Data: 00 C3 00 00  returns 0x00 (0001ms, 0791ms total)
T3BCC 007:672 JLINK_ReadMem (0x20000018, 0x0004 Bytes, ...) -- CPU_ReadMem(4 bytes @ 0x20000018) - Data: 00 00 C3 00  returns 0x00 (0001ms, 0792ms total)
T3BCC 007:673 JLINK_ReadMem (0x2000001C, 0x0004 Bytes, ...) -- CPU_ReadMem(4 bytes @ 0x2000001C) - Data: 00 00 00 C3  returns 0x00 (0001ms, 0793ms total)
T3BCC 007:674 JLINK_ReadMem (0x20000020, 0x0004 Bytes, ...) -- CPU_ReadMem(4 bytes @ 0x20000020) - Data: C3 C3 C3 C3  returns 0x00 (0001ms, 0794ms total)
T3BCC 007:675 JLINK_ReadMem (0x40003000, 0x00B0 Bytes, ...) -- CPU_ReadMem(176 bytes @ 0x40003000) - Data: 00 00 00 00 00 01 00 00 00 02 00 00 00 03 00 00 ...  returns 0x00 (0002ms, 0796ms total)
T3BCC 007:680 JLINK_ReadMem (0x0000006A, 0x0002 Bytes, ...) -- CPU_ReadMem(64 bytes @ 0x00000040) -- Updating DA cache (64 bytes @ 0x00000040) -- Read from DA cache (2 bytes @ 0x0000006A) - Data: 80 47  returns 0x00 (0002ms, 0798ms total)
T3BCC 007:682 JLINK_ReadMem (0x0000006C, 0x003C Bytes, ...) -- CPU_ReadMem(64 bytes @ 0x00000080) -- Updating DA cache (64 bytes @ 0x00000080) -- Read from DA cache (60 bytes @ 0x0000006C) - Data: 1B 48 00 47 00 B5 00 F0 74 F8 00 BD 00 B5 00 F0 ...  returns 0x00 (0001ms, 0799ms total)
T0A74 008:069 JLINK_Step() -- Read from DA cache (2 bytes @ 0x0000006C) -- CPU_ReadMem(4 bytes @ 0xE0001004) -- Not simulated -- CPU_WriteMem(4 bytes @ 0xE0002008)  returns 0x00 (0006ms, 0805ms total)
T0A74 008:075 JLINK_ReadReg(R15 (PC))  returns 0x0000006E (0000ms, 0805ms total)
T0A74 008:075 JLINK_ReadReg(XPSR)  returns 0x61000000 (0000ms, 0805ms total)
T0A74 008:075 JLINK_ReadReg(R0)  returns 0x00000051 (0000ms, 0805ms total)
T0A74 008:075 JLINK_ReadReg(R1)  returns 0x00000000 (0000ms, 0805ms total)
T0A74 008:075 JLINK_ReadReg(R2)  returns 0x00000000 (0000ms, 0805ms total)
T0A74 008:075 JLINK_ReadReg(R3)  returns 0x00000000 (0000ms, 0805ms total)
T0A74 008:075 JLINK_ReadReg(R4)  returns 0x00000032 (0000ms, 0805ms total)
T0A74 008:075 JLINK_ReadReg(R5)  returns 0x000005C4 (0001ms, 0806ms total)
T0A74 008:076 JLINK_ReadReg(R6)  returns 0x00000000 (0000ms, 0806ms total)
T0A74 008:076 JLINK_ReadReg(R7)  returns 0x00000000 (0000ms, 0806ms total)
T0A74 008:076 JLINK_ReadReg(R8)  returns 0x00000000 (0000ms, 0806ms total)
T0A74 008:076 JLINK_ReadReg(R9)  returns 0x00000000 (0000ms, 0806ms total)
T0A74 008:076 JLINK_ReadReg(R10)  returns 0x00000000 (0000ms, 0806ms total)
T0A74 008:076 JLINK_ReadReg(R11)  returns 0x00000000 (0000ms, 0806ms total)
T0A74 008:076 JLINK_ReadReg(R12)  returns 0x00000000 (0000ms, 0806ms total)
T0A74 008:076 JLINK_ReadReg(R13 (SP))  returns 0x20008030 (0000ms, 0806ms total)
T0A74 008:076 JLINK_ReadReg(R14)  returns 0x000001E9 (0000ms, 0806ms total)
T0A74 008:076 JLINK_ReadReg(R15 (PC))  returns 0x0000006E (0000ms, 0806ms total)
T0A74 008:076 JLINK_ReadReg(XPSR)  returns 0x61000000 (0000ms, 0806ms total)
T0A74 008:076 JLINK_ReadReg(MSP)  returns 0x20008030 (0000ms, 0806ms total)
T0A74 008:076 JLINK_ReadReg(PSP)  returns 0x00000000 (0000ms, 0806ms total)
T0A74 008:076 JLINK_ReadReg(CFBP)  returns 0x00000000 (0000ms, 0806ms total)
T3BCC 008:076 JLINK_ReadMem (0x20000010, 0x0004 Bytes, ...) -- CPU_ReadMem(4 bytes @ 0x20000010) - Data: 0C 33 00 40  returns 0x00 (0001ms, 0807ms total)
T3BCC 008:078 JLINK_ReadMem (0x20000014, 0x0004 Bytes, ...) -- CPU_ReadMem(4 bytes @ 0x20000014) - Data: 00 C3 00 00  returns 0x00 (0001ms, 0808ms total)
T3BCC 008:079 JLINK_ReadMem (0x20000018, 0x0004 Bytes, ...) -- CPU_ReadMem(4 bytes @ 0x20000018) - Data: 00 00 C3 00  returns 0x00 (0001ms, 0809ms total)
T3BCC 008:080 JLINK_ReadMem (0x2000001C, 0x0004 Bytes, ...) -- CPU_ReadMem(4 bytes @ 0x2000001C) - Data: 00 00 00 C3  returns 0x00 (0001ms, 0810ms total)
T3BCC 008:081 JLINK_ReadMem (0x20000020, 0x0004 Bytes, ...) -- CPU_ReadMem(4 bytes @ 0x20000020) - Data: C3 C3 C3 C3  returns 0x00 (0001ms, 0811ms total)
T3BCC 008:082 JLINK_ReadMem (0x40003000, 0x00B0 Bytes, ...) -- CPU_ReadMem(176 bytes @ 0x40003000) - Data: 00 00 00 00 00 01 00 00 00 02 00 00 00 03 00 00 ...  returns 0x00 (0002ms, 0813ms total)
T3BCC 008:087 JLINK_ReadMem (0x0000006C, 0x003C Bytes, ...) -- CPU_ReadMem(128 bytes @ 0x00000040) -- Updating DA cache (128 bytes @ 0x00000040) -- Read from DA cache (60 bytes @ 0x0000006C) - Data: 1B 48 00 47 00 B5 00 F0 74 F8 00 BD 00 B5 00 F0 ...  returns 0x00 (0002ms, 0815ms total)
T0A74 008:598 JLINK_Step() -- Read from DA cache (2 bytes @ 0x0000006E) -- CPU_ReadMem(4 bytes @ 0xE0001004) -- Simulated  returns 0x00 (0002ms, 0817ms total)
T0A74 008:600 JLINK_ReadReg(R15 (PC))  returns 0x00000050 (0000ms, 0817ms total)
T0A74 008:600 JLINK_ReadReg(XPSR)  returns 0x61000000 (0000ms, 0817ms total)
T0A74 008:600 JLINK_ReadMem (0x0000004E, 0x0002 Bytes, ...) -- Read from DA cache (2 bytes @ 0x0000004E) - Data: 00 00  returns 0x00 (0000ms, 0817ms total)
T0A74 008:600 JLINK_ReadMem (0x00000050, 0x003C Bytes, ...) -- Read from DA cache (60 bytes @ 0x00000050) - Data: DF F8 10 D0 00 F0 5A F8 00 48 00 47 DD 03 00 00 ...  returns 0x00 (0000ms, 0817ms total)
T0A74 008:600 JLINK_Step() -- Read from DA cache (2 bytes @ 0x00000050) -- Not simulated -- CPU_WriteMem(4 bytes @ 0xE0001004)  returns 0x00 (0006ms, 0823ms total)
T0A74 008:607 JLINK_ReadReg(R15 (PC))  returns 0x00000054 (0000ms, 0823ms total)
T0A74 008:607 JLINK_ReadReg(XPSR)  returns 0x61000000 (0000ms, 0823ms total)
T0A74 008:607 JLINK_SetBPEx(Addr = 0x00000058, Type = 0xFFFFFFF2)  returns 0x00000002 (0000ms, 0823ms total)
T0A74 008:607 JLINK_Go() -- CPU_WriteMem(4 bytes @ 0xE0002000) -- CPU_ReadMem(4 bytes @ 0xE0001000) -- CPU_WriteMem(4 bytes @ 0xE0002008) (0003ms, 0826ms total)
T0A74 008:712 JLINK_IsHalted()  returns TRUE (0003ms, 0829ms total)
T0A74 008:715 JLINK_Halt()  returns 0x00 (0000ms, 0826ms total)
T0A74 008:715 JLINK_IsHalted()  returns TRUE (0000ms, 0826ms total)
T0A74 008:715 JLINK_IsHalted()  returns TRUE (0000ms, 0826ms total)
T0A74 008:715 JLINK_IsHalted()  returns TRUE (0000ms, 0826ms total)
T0A74 008:715 JLINK_ReadReg(R15 (PC))  returns 0x00000058 (0000ms, 0826ms total)
T0A74 008:715 JLINK_ReadReg(XPSR)  returns 0x61000000 (0000ms, 0826ms total)
T0A74 008:715 JLINK_ClrBPEx(BPHandle = 0x00000002)  returns 0x00 (0000ms, 0826ms total)
T0A74 008:715 JLINK_ReadMemU32(0xE000ED30, 0x0001 Items, ...) -- CPU_ReadMem(4 bytes @ 0xE000ED30) - Data: 03 00 00 00  returns 0x01 (0001ms, 0827ms total)
T0A74 008:716 JLINK_ReadMemU32(0xE0001028, 0x0001 Items, ...) -- CPU_ReadMem(4 bytes @ 0xE0001028) - Data: 00 00 00 00  returns 0x01 (0001ms, 0828ms total)
T0A74 008:717 JLINK_ReadMemU32(0xE0001038, 0x0001 Items, ...) -- CPU_ReadMem(4 bytes @ 0xE0001038) - Data: 00 02 00 00  returns 0x01 (0001ms, 0829ms total)
T0A74 008:718 JLINK_ReadMemU32(0xE0001048, 0x0001 Items, ...) -- CPU_ReadMem(4 bytes @ 0xE0001048) - Data: 00 00 00 00  returns 0x01 (0000ms, 0829ms total)
T0A74 008:718 JLINK_ReadMemU32(0xE0001058, 0x0001 Items, ...) -- CPU_ReadMem(4 bytes @ 0xE0001058) - Data: 00 00 00 00  returns 0x01 (0001ms, 0830ms total)
T0A74 008:719 JLINK_ReadReg(R0)  returns 0x00000000 (0000ms, 0830ms total)
T0A74 008:719 JLINK_ReadReg(R1)  returns 0x20008030 (0001ms, 0831ms total)
T0A74 008:720 JLINK_ReadReg(R2)  returns 0x00000000 (0000ms, 0831ms total)
T0A74 008:720 JLINK_ReadReg(R3)  returns 0x0000022D (0000ms, 0831ms total)
T0A74 008:720 JLINK_ReadReg(R4)  returns 0x000005C4 (0000ms, 0831ms total)
T0A74 008:720 JLINK_ReadReg(R5)  returns 0x000005C4 (0000ms, 0831ms total)
T0A74 008:720 JLINK_ReadReg(R6)  returns 0x00000000 (0000ms, 0831ms total)
T0A74 008:720 JLINK_ReadReg(R7)  returns 0x00000000 (0000ms, 0831ms total)
T0A74 008:720 JLINK_ReadReg(R8)  returns 0x00000000 (0000ms, 0831ms total)
T0A74 008:720 JLINK_ReadReg(R9)  returns 0x00000000 (0000ms, 0831ms total)
T0A74 008:720 JLINK_ReadReg(R10)  returns 0x00000000 (0000ms, 0831ms total)
T0A74 008:720 JLINK_ReadReg(R11)  returns 0x00000000 (0000ms, 0831ms total)
T0A74 008:720 JLINK_ReadReg(R12)  returns 0x00000000 (0000ms, 0831ms total)
T0A74 008:720 JLINK_ReadReg(R13 (SP))  returns 0x20008030 (0000ms, 0831ms total)
T0A74 008:720 JLINK_ReadReg(R14)  returns 0x00000129 (0000ms, 0831ms total)
T0A74 008:720 JLINK_ReadReg(R15 (PC))  returns 0x00000058 (0000ms, 0831ms total)
T0A74 008:720 JLINK_ReadReg(XPSR)  returns 0x61000000 (0000ms, 0831ms total)
T0A74 008:720 JLINK_ReadReg(MSP)  returns 0x20008030 (0000ms, 0831ms total)
T0A74 008:720 JLINK_ReadReg(PSP)  returns 0x00000000 (0000ms, 0831ms total)
T0A74 008:720 JLINK_ReadReg(CFBP)  returns 0x00000000 (0000ms, 0831ms total)
T3BCC 008:721 JLINK_ReadMem (0x20000010, 0x0004 Bytes, ...) -- CPU_ReadMem(4 bytes @ 0x20000010) - Data: 00 30 00 40  returns 0x00 (0001ms, 0832ms total)
T3BCC 008:725 JLINK_ReadMem (0x20000014, 0x0004 Bytes, ...) -- CPU_ReadMem(4 bytes @ 0x20000014) - Data: 00 00 00 00  returns 0x00 (0001ms, 0833ms total)
T3BCC 008:727 JLINK_ReadMem (0x20000018, 0x0004 Bytes, ...) -- CPU_ReadMem(4 bytes @ 0x20000018) - Data: 00 00 00 00  returns 0x00 (0001ms, 0834ms total)
T3BCC 008:728 JLINK_ReadMem (0x2000001C, 0x0004 Bytes, ...) -- CPU_ReadMem(4 bytes @ 0x2000001C) - Data: 00 00 00 00  returns 0x00 (0001ms, 0835ms total)
T3BCC 008:729 JLINK_ReadMem (0x20000020, 0x0004 Bytes, ...) -- CPU_ReadMem(4 bytes @ 0x20000020) - Data: 00 00 00 00  returns 0x00 (0001ms, 0836ms total)
T3BCC 008:731 JLINK_ReadMem (0x40003000, 0x00B0 Bytes, ...) -- CPU_ReadMem(176 bytes @ 0x40003000) - Data: 00 00 00 00 00 01 00 00 00 02 00 00 00 03 00 00 ...  returns 0x00 (0002ms, 0838ms total)
T3BCC 008:736 JLINK_ReadMem (0x00000058, 0x003C Bytes, ...) -- CPU_ReadMem(128 bytes @ 0x00000040) -- Updating DA cache (128 bytes @ 0x00000040) -- Read from DA cache (60 bytes @ 0x00000058) - Data: 00 48 00 47 DD 03 00 00 AF F3 00 80 30 80 00 20 ...  returns 0x00 (0001ms, 0839ms total)
T0A74 009:465 JLINK_Step() -- Read from DA cache (2 bytes @ 0x00000058) -- CPU_ReadMem(4 bytes @ 0xE0001004) -- Not simulated -- CPU_WriteMem(4 bytes @ 0xE0002008)  returns 0x00 (0007ms, 0846ms total)
T0A74 009:472 JLINK_ReadReg(R15 (PC))  returns 0x0000005A (0000ms, 0846ms total)
T0A74 009:472 JLINK_ReadReg(XPSR)  returns 0x61000000 (0000ms, 0846ms total)
T0A74 009:472 JLINK_ReadReg(R0)  returns 0x000003DD (0001ms, 0847ms total)
T0A74 009:473 JLINK_ReadReg(R1)  returns 0x20008030 (0000ms, 0847ms total)
T0A74 009:473 JLINK_ReadReg(R2)  returns 0x00000000 (0000ms, 0847ms total)
T0A74 009:473 JLINK_ReadReg(R3)  returns 0x0000022D (0000ms, 0847ms total)
T0A74 009:473 JLINK_ReadReg(R4)  returns 0x000005C4 (0000ms, 0847ms total)
T0A74 009:473 JLINK_ReadReg(R5)  returns 0x000005C4 (0000ms, 0847ms total)
T0A74 009:473 JLINK_ReadReg(R6)  returns 0x00000000 (0000ms, 0847ms total)
T0A74 009:473 JLINK_ReadReg(R7)  returns 0x00000000 (0000ms, 0847ms total)
T0A74 009:473 JLINK_ReadReg(R8)  returns 0x00000000 (0000ms, 0847ms total)
T0A74 009:473 JLINK_ReadReg(R9)  returns 0x00000000 (0000ms, 0847ms total)
T0A74 009:473 JLINK_ReadReg(R10)  returns 0x00000000 (0000ms, 0847ms total)
T0A74 009:473 JLINK_ReadReg(R11)  returns 0x00000000 (0000ms, 0847ms total)
T0A74 009:473 JLINK_ReadReg(R12)  returns 0x00000000 (0000ms, 0847ms total)
T0A74 009:473 JLINK_ReadReg(R13 (SP))  returns 0x20008030 (0000ms, 0847ms total)
T0A74 009:473 JLINK_ReadReg(R14)  returns 0x00000129 (0000ms, 0847ms total)
T0A74 009:473 JLINK_ReadReg(R15 (PC))  returns 0x0000005A (0000ms, 0847ms total)
T0A74 009:473 JLINK_ReadReg(XPSR)  returns 0x61000000 (0000ms, 0847ms total)
T0A74 009:473 JLINK_ReadReg(MSP)  returns 0x20008030 (0000ms, 0847ms total)
T0A74 009:473 JLINK_ReadReg(PSP)  returns 0x00000000 (0000ms, 0847ms total)
T0A74 009:473 JLINK_ReadReg(CFBP)  returns 0x00000000 (0000ms, 0847ms total)
T3BCC 009:473 JLINK_ReadMem (0x20000010, 0x0004 Bytes, ...) -- CPU_ReadMem(4 bytes @ 0x20000010) - Data: 00 30 00 40  returns 0x00 (0002ms, 0849ms total)
T3BCC 009:476 JLINK_ReadMem (0x20000014, 0x0004 Bytes, ...) -- CPU_ReadMem(4 bytes @ 0x20000014) - Data: 00 00 00 00  returns 0x00 (0000ms, 0849ms total)
T3BCC 009:477 JLINK_ReadMem (0x20000018, 0x0004 Bytes, ...) -- CPU_ReadMem(4 bytes @ 0x20000018) - Data: 00 00 00 00  returns 0x00 (0001ms, 0850ms total)
T3BCC 009:479 JLINK_ReadMem (0x2000001C, 0x0004 Bytes, ...) -- CPU_ReadMem(4 bytes @ 0x2000001C) - Data: 00 00 00 00  returns 0x00 (0001ms, 0851ms total)
T3BCC 009:480 JLINK_ReadMem (0x20000020, 0x0004 Bytes, ...) -- CPU_ReadMem(4 bytes @ 0x20000020) - Data: 00 00 00 00  returns 0x00 (0001ms, 0852ms total)
T3BCC 009:482 JLINK_ReadMem (0x40003000, 0x00B0 Bytes, ...) -- CPU_ReadMem(176 bytes @ 0x40003000) - Data: 00 00 00 00 00 01 00 00 00 02 00 00 00 03 00 00 ...  returns 0x00 (0002ms, 0854ms total)
T0A74 010:532 JLINK_ReadMem (0x0000005A, 0x0002 Bytes, ...) -- CPU_ReadMem(64 bytes @ 0x00000040) -- Updating DA cache (64 bytes @ 0x00000040) -- Read from DA cache (2 bytes @ 0x0000005A) - Data: 00 47  returns 0x00 (0001ms, 0855ms total)
T0A74 010:533 JLINK_ReadMem (0x0000005C, 0x003C Bytes, ...) -- CPU_ReadMem(64 bytes @ 0x00000080) -- Updating DA cache (64 bytes @ 0x00000080) -- Read from DA cache (60 bytes @ 0x0000005C) - Data: DD 03 00 00 AF F3 00 80 30 80 00 20 1B 48 80 47 ...  returns 0x00 (0002ms, 0857ms total)
T0A74 010:535 JLINK_Step() -- Read from DA cache (2 bytes @ 0x0000005A) -- CPU_ReadMem(4 bytes @ 0xE0001004) -- Simulated  returns 0x00 (0001ms, 0858ms total)
T0A74 010:536 JLINK_ReadReg(R15 (PC))  returns 0x000003DC (0000ms, 0858ms total)
T0A74 010:536 JLINK_ReadReg(XPSR)  returns 0x61000000 (0000ms, 0858ms total)
T0A74 010:537 JLINK_ReadReg(R0)  returns 0x000003DD (0000ms, 0858ms total)
T0A74 010:537 JLINK_ReadReg(R1)  returns 0x20008030 (0000ms, 0858ms total)
T0A74 010:537 JLINK_ReadReg(R2)  returns 0x00000000 (0000ms, 0858ms total)
T0A74 010:537 JLINK_ReadReg(R3)  returns 0x0000022D (0000ms, 0858ms total)
T0A74 010:537 JLINK_ReadReg(R4)  returns 0x000005C4 (0000ms, 0858ms total)
T0A74 010:537 JLINK_ReadReg(R5)  returns 0x000005C4 (0000ms, 0858ms total)
T0A74 010:537 JLINK_ReadReg(R6)  returns 0x00000000 (0000ms, 0858ms total)
T0A74 010:537 JLINK_ReadReg(R7)  returns 0x00000000 (0000ms, 0858ms total)
T0A74 010:537 JLINK_ReadReg(R8)  returns 0x00000000 (0000ms, 0858ms total)
T0A74 010:537 JLINK_ReadReg(R9)  returns 0x00000000 (0000ms, 0858ms total)
T0A74 010:537 JLINK_ReadReg(R10)  returns 0x00000000 (0000ms, 0858ms total)
T0A74 010:537 JLINK_ReadReg(R11)  returns 0x00000000 (0000ms, 0858ms total)
T0A74 010:537 JLINK_ReadReg(R12)  returns 0x00000000 (0000ms, 0858ms total)
T0A74 010:537 JLINK_ReadReg(R13 (SP))  returns 0x20008030 (0000ms, 0858ms total)
T0A74 010:537 JLINK_ReadReg(R14)  returns 0x00000129 (0000ms, 0858ms total)
T0A74 010:537 JLINK_ReadReg(R15 (PC))  returns 0x000003DC (0000ms, 0858ms total)
T0A74 010:537 JLINK_ReadReg(XPSR)  returns 0x61000000 (0000ms, 0858ms total)
T0A74 010:537 JLINK_ReadReg(MSP)  returns 0x20008030 (0000ms, 0858ms total)
T0A74 010:537 JLINK_ReadReg(PSP)  returns 0x00000000 (0000ms, 0858ms total)
T0A74 010:537 JLINK_ReadReg(CFBP)  returns 0x00000000 (0000ms, 0858ms total)
T3BCC 010:538 JLINK_ReadMem (0x20000010, 0x0004 Bytes, ...) -- CPU_ReadMem(4 bytes @ 0x20000010) - Data: 00 30 00 40  returns 0x00 (0001ms, 0859ms total)
T3BCC 010:550 JLINK_ReadMem (0x20000014, 0x0004 Bytes, ...) -- CPU_ReadMem(4 bytes @ 0x20000014) - Data: 00 00 00 00  returns 0x00 (0001ms, 0860ms total)
T3BCC 010:551 JLINK_ReadMem (0x20000018, 0x0004 Bytes, ...) -- CPU_ReadMem(4 bytes @ 0x20000018) - Data: 00 00 00 00  returns 0x00 (0002ms, 0862ms total)
T3BCC 010:553 JLINK_ReadMem (0x2000001C, 0x0004 Bytes, ...) -- CPU_ReadMem(4 bytes @ 0x2000001C) - Data: 00 00 00 00  returns 0x00 (0001ms, 0863ms total)
T3BCC 010:554 JLINK_ReadMem (0x20000020, 0x0004 Bytes, ...) -- CPU_ReadMem(4 bytes @ 0x20000020) - Data: 00 00 00 00  returns 0x00 (0000ms, 0863ms total)
T3BCC 010:554 JLINK_ReadMem (0x40003000, 0x00B0 Bytes, ...) -- CPU_ReadMem(176 bytes @ 0x40003000) - Data: 00 00 00 00 00 01 00 00 00 02 00 00 00 03 00 00 ...  returns 0x00 (0002ms, 0865ms total)
T3BCC 010:559 JLINK_ReadMem (0x000002DC, 0x003C Bytes, ...) -- CPU_ReadMem(128 bytes @ 0x000002C0) -- Updating DA cache (128 bytes @ 0x000002C0) -- Read from DA cache (60 bytes @ 0x000002DC) - Data: 01 C9 0A 91 00 28 02 DA 40 42 2D 21 02 E0 39 05 ...  returns 0x00 (0002ms, 0867ms total)
T3BCC 010:561 JLINK_ReadMem (0x00000318, 0x003C Bytes, ...) -- CPU_ReadMem(64 bytes @ 0x00000340) -- Updating DA cache (64 bytes @ 0x00000340) -- Read from DA cache (60 bytes @ 0x00000318) - Data: FF F7 E2 FE 30 31 06 F8 01 1D 00 28 F7 D1 AD EB ...  returns 0x00 (0003ms, 0870ms total)
T3BCC 010:564 JLINK_ReadMem (0x00000354, 0x003C Bytes, ...) -- CPU_ReadMem(64 bytes @ 0x00000380) -- Updating DA cache (64 bytes @ 0x00000380) -- Read from DA cache (60 bytes @ 0x00000354) - Data: 7F 1C 57 45 F6 DB 04 E0 30 20 5A 46 0B 99 90 47 ...  returns 0x00 (0000ms, 0870ms total)
T3BCC 010:564 JLINK_ReadMem (0x00000390, 0x003C Bytes, ...) -- CPU_ReadMem(64 bytes @ 0x000003C0) -- Updating DA cache (64 bytes @ 0x000003C0) -- Read from DA cache (60 bytes @ 0x00000390) - Data: 00 B5 02 46 00 20 FF F7 F0 FE 10 46 FF F7 F1 FE ...  returns 0x00 (0002ms, 0872ms total)
T3BCC 010:566 JLINK_ReadMem (0x000003CC, 0x0034 Bytes, ...) -- Read from DA cache (52 bytes @ 0x000003CC) - Data: B5 F8 21 46 4F F0 80 40 00 F0 B0 F8 20 46 70 BD ...  returns 0x00 (0000ms, 0872ms total)
T3BCC 010:566 JLINK_ReadMem (0x00000400, 0x0008 Bytes, ...) -- CPU_ReadMem(64 bytes @ 0x00000400) -- Updating DA cache (64 bytes @ 0x00000400) -- Read from DA cache (8 bytes @ 0x00000400) - Data: 55 E0 2B A0 FF F7 FA FE  returns 0x00 (0001ms, 0873ms total)
T0A74 011:321 JLINK_Step() -- Read from DA cache (2 bytes @ 0x000003DC) -- Simulated  returns 0x00 (0001ms, 0874ms total)
T0A74 011:322 JLINK_ReadReg(R15 (PC))  returns 0x000003DE (0000ms, 0874ms total)
T0A74 011:322 JLINK_ReadReg(XPSR)  returns 0x61000000 (0000ms, 0874ms total)
T0A74 011:322 JLINK_SetBPEx(Addr = 0x000003E2, Type = 0xFFFFFFF2)  returns 0x00000003 (0000ms, 0874ms total)
T0A74 011:322 JLINK_Go() -- CPU_WriteMem(4 bytes @ 0xE0002000) -- CPU_ReadMem(4 bytes @ 0xE0001000) -- CPU_WriteMem(4 bytes @ 0xE0002008) -- CPU_WriteMem(4 bytes @ 0xE0001004) (0005ms, 0879ms total)
T0A74 011:428 JLINK_IsHalted()  returns TRUE (0003ms, 0882ms total)
T0A74 011:431 JLINK_Halt()  returns 0x00 (0000ms, 0879ms total)
T0A74 011:431 JLINK_IsHalted()  returns TRUE (0000ms, 0879ms total)
T0A74 011:431 JLINK_IsHalted()  returns TRUE (0000ms, 0879ms total)
T0A74 011:431 JLINK_IsHalted()  returns TRUE (0000ms, 0879ms total)
T0A74 011:431 JLINK_ReadReg(R15 (PC))  returns 0x000003E2 (0000ms, 0879ms total)
T0A74 011:431 JLINK_ReadReg(XPSR)  returns 0x61000000 (0000ms, 0879ms total)
T0A74 011:431 JLINK_ClrBPEx(BPHandle = 0x00000003)  returns 0x00 (0000ms, 0879ms total)
T0A74 011:431 JLINK_ReadMemU32(0xE000ED30, 0x0001 Items, ...) -- CPU_ReadMem(4 bytes @ 0xE000ED30) - Data: 03 00 00 00  returns 0x01 (0001ms, 0880ms total)
T0A74 011:432 JLINK_ReadMemU32(0xE0001028, 0x0001 Items, ...) -- CPU_ReadMem(4 bytes @ 0xE0001028) - Data: 00 00 00 00  returns 0x01 (0001ms, 0881ms total)
T0A74 011:433 JLINK_ReadMemU32(0xE0001038, 0x0001 Items, ...) -- CPU_ReadMem(4 bytes @ 0xE0001038) - Data: 00 02 00 00  returns 0x01 (0001ms, 0882ms total)
T0A74 011:434 JLINK_ReadMemU32(0xE0001048, 0x0001 Items, ...) -- CPU_ReadMem(4 bytes @ 0xE0001048) - Data: 00 00 00 00  returns 0x01 (0001ms, 0883ms total)
T0A74 011:435 JLINK_ReadMemU32(0xE0001058, 0x0001 Items, ...) -- CPU_ReadMem(4 bytes @ 0xE0001058) - Data: 00 00 00 00  returns 0x01 (0001ms, 0884ms total)
T0A74 011:436 JLINK_ReadReg(R0)  returns 0x00000018 (0000ms, 0884ms total)
T0A74 011:436 JLINK_ReadReg(R1)  returns 0x0000000A (0000ms, 0884ms total)
T0A74 011:436 JLINK_ReadReg(R2)  returns 0x00000000 (0000ms, 0884ms total)
T0A74 011:436 JLINK_ReadReg(R3)  returns 0x000003BD (0000ms, 0884ms total)
T0A74 011:436 JLINK_ReadReg(R4)  returns 0x000005C4 (0000ms, 0884ms total)
T0A74 011:436 JLINK_ReadReg(R5)  returns 0x000005C4 (0000ms, 0884ms total)
T0A74 011:436 JLINK_ReadReg(R6)  returns 0x00000000 (0000ms, 0884ms total)
T0A74 011:436 JLINK_ReadReg(R7)  returns 0x00000000 (0000ms, 0884ms total)
T0A74 011:436 JLINK_ReadReg(R8)  returns 0x00000000 (0000ms, 0884ms total)
T0A74 011:436 JLINK_ReadReg(R9)  returns 0x00000000 (0000ms, 0884ms total)
T0A74 011:436 JLINK_ReadReg(R10)  returns 0x00000000 (0000ms, 0884ms total)
T0A74 011:436 JLINK_ReadReg(R11)  returns 0x00000000 (0001ms, 0885ms total)
T0A74 011:437 JLINK_ReadReg(R12)  returns 0x00000000 (0000ms, 0885ms total)
T0A74 011:437 JLINK_ReadReg(R13 (SP))  returns 0x20008030 (0000ms, 0885ms total)
T0A74 011:437 JLINK_ReadReg(R14)  returns 0x000003D9 (0000ms, 0885ms total)
T0A74 011:437 JLINK_ReadReg(R15 (PC))  returns 0x000003E2 (0000ms, 0885ms total)
T0A74 011:437 JLINK_ReadReg(XPSR)  returns 0x61000000 (0000ms, 0885ms total)
T0A74 011:437 JLINK_ReadReg(MSP)  returns 0x20008030 (0000ms, 0885ms total)
T0A74 011:437 JLINK_ReadReg(PSP)  returns 0x00000000 (0000ms, 0885ms total)
T0A74 011:437 JLINK_ReadReg(CFBP)  returns 0x00000000 (0000ms, 0885ms total)
T3BCC 011:437 JLINK_ReadMem (0x20000010, 0x0004 Bytes, ...) -- CPU_ReadMem(4 bytes @ 0x20000010) - Data: 00 30 00 40  returns 0x00 (0001ms, 0886ms total)
T3BCC 011:439 JLINK_ReadMem (0x20000014, 0x0004 Bytes, ...) -- CPU_ReadMem(4 bytes @ 0x20000014) - Data: 00 00 00 00  returns 0x00 (0001ms, 0887ms total)
T3BCC 011:440 JLINK_ReadMem (0x20000018, 0x0004 Bytes, ...) -- CPU_ReadMem(4 bytes @ 0x20000018) - Data: 00 00 00 00  returns 0x00 (0001ms, 0888ms total)
T3BCC 011:441 JLINK_ReadMem (0x2000001C, 0x0004 Bytes, ...) -- CPU_ReadMem(4 bytes @ 0x2000001C) - Data: 00 00 00 00  returns 0x00 (0001ms, 0889ms total)
T3BCC 011:442 JLINK_ReadMem (0x20000020, 0x0004 Bytes, ...) -- CPU_ReadMem(4 bytes @ 0x20000020) - Data: 00 00 00 00  returns 0x00 (0002ms, 0891ms total)
T3BCC 011:444 JLINK_ReadMem (0x40003000, 0x00B0 Bytes, ...) -- CPU_ReadMem(176 bytes @ 0x40003000) - Data: 00 00 00 00 00 01 00 00 00 02 00 00 00 03 00 00 ...  returns 0x00 (0002ms, 0893ms total)
T3BCC 011:454 JLINK_ReadMem (0x000003E2, 0x0002 Bytes, ...) -- CPU_ReadMem(64 bytes @ 0x000003C0) -- Updating DA cache (64 bytes @ 0x000003C0) -- Read from DA cache (2 bytes @ 0x000003E2) - Data: 3A A0  returns 0x00 (0002ms, 0895ms total)
T3BCC 011:456 JLINK_ReadMem (0x000003E4, 0x001C Bytes, ...) -- Read from DA cache (28 bytes @ 0x000003E4) - Data: FF F7 0A FF 3F A0 FF F7 07 FF 37 A0 FF F7 04 FF ...  returns 0x00 (0000ms, 0895ms total)
T3BCC 011:456 JLINK_ReadMem (0x00000400, 0x0020 Bytes, ...) -- CPU_ReadMem(64 bytes @ 0x00000400) -- Updating DA cache (64 bytes @ 0x00000400) -- Read from DA cache (32 bytes @ 0x00000400) - Data: 55 E0 2B A0 FF F7 FA FE 00 20 20 E0 3D 49 09 68 ...  returns 0x00 (0001ms, 0896ms total)
T0A74 011:837 JLINK_Step() -- Read from DA cache (2 bytes @ 0x000003E2) -- CPU_ReadMem(4 bytes @ 0xE0001004) -- Simulated  returns 0x00 (0001ms, 0897ms total)
T0A74 011:838 JLINK_ReadReg(R15 (PC))  returns 0x000003E4 (0000ms, 0897ms total)
T0A74 011:838 JLINK_ReadReg(XPSR)  returns 0x61000000 (0000ms, 0897ms total)
T0A74 011:838 JLINK_SetBPEx(Addr = 0x000003E8, Type = 0xFFFFFFF2)  returns 0x00000004 (0000ms, 0897ms total)
T0A74 011:838 JLINK_Go() -- CPU_WriteMem(4 bytes @ 0xE0002000) -- CPU_ReadMem(4 bytes @ 0xE0001000) -- CPU_WriteMem(4 bytes @ 0xE0002008) -- CPU_WriteMem(4 bytes @ 0xE0001004) (0006ms, 0903ms total)
T0A74 011:945 JLINK_IsHalted()  returns TRUE (0003ms, 0906ms total)
T0A74 011:948 JLINK_Halt()  returns 0x00 (0000ms, 0903ms total)
T0A74 011:948 JLINK_IsHalted()  returns TRUE (0000ms, 0903ms total)
T0A74 011:948 JLINK_IsHalted()  returns TRUE (0000ms, 0903ms total)
T0A74 011:948 JLINK_IsHalted()  returns TRUE (0000ms, 0903ms total)
T0A74 011:948 JLINK_ReadReg(R15 (PC))  returns 0x000003E8 (0000ms, 0903ms total)
T0A74 011:948 JLINK_ReadReg(XPSR)  returns 0x61000000 (0000ms, 0903ms total)
T0A74 011:948 JLINK_ClrBPEx(BPHandle = 0x00000004)  returns 0x00 (0000ms, 0903ms total)
T0A74 011:948 JLINK_ReadMemU32(0xE000ED30, 0x0001 Items, ...) -- CPU_ReadMem(4 bytes @ 0xE000ED30) - Data: 03 00 00 00  returns 0x01 (0001ms, 0904ms total)
T0A74 011:949 JLINK_ReadMemU32(0xE0001028, 0x0001 Items, ...) -- CPU_ReadMem(4 bytes @ 0xE0001028) - Data: 00 00 00 00  returns 0x01 (0001ms, 0905ms total)
T0A74 011:950 JLINK_ReadMemU32(0xE0001038, 0x0001 Items, ...) -- CPU_ReadMem(4 bytes @ 0xE0001038) - Data: 00 02 00 00  returns 0x01 (0001ms, 0906ms total)
T0A74 011:951 JLINK_ReadMemU32(0xE0001048, 0x0001 Items, ...) -- CPU_ReadMem(4 bytes @ 0xE0001048) - Data: 00 00 00 00  returns 0x01 (0001ms, 0907ms total)
